
T13D8 000:283 SEGGER J-Link V5.12e Log File (0001ms, 0267ms total)
T13D8 000:283 DLL Compiled: Apr 29 2016 15:03:58 (0001ms, 0267ms total)
T13D8 000:283 Logging started @ 2017-08-24 22:54 (0001ms, 0267ms total)
T13D8 000:284 JLINK_SetWarnOutHandler(...) (0000ms, 0267ms total)
T13D8 000:284 JLINK_OpenEx(...)
Firmware: J-Link ARM V8 compiled Nov 28 2014 13:44:46
Hardware: V8.00
S/N: 1701996902
Feature(s): RDI,FlashDL,FlashBP,JFlash  returns O.K. (0263ms, 0530ms total)
T13D8 000:547 JLINK_SetErrorOutHandler(...) (0000ms, 0530ms total)
T13D8 000:547 JLINK_ExecCommand("ProjectFile = "F:\design\C\Bubble_Wall\examples\ble_peripheral\ble_app_uart\pca10040\s132\arm5_no_packs\JLinkSettings.ini"", ...)  returns 0x00 (0000ms, 0530ms total)
T13D8 000:547 JLINK_ExecCommand("Device = nRF52832_xxAA", ...)Device "NRF52832_XXAA" selected.  returns 0x00 (0001ms, 0531ms total)
T13D8 000:548 JLINK_ExecCommand("DisableConnectionTimeout", ...)  returns 0x01 (0000ms, 0531ms total)
T13D8 000:548 JLINK_GetHardwareVersion()  returns 0x13880 (0000ms, 0531ms total)
T13D8 000:548 JLINK_GetDLLVersion()  returns 51205 (0000ms, 0531ms total)
T13D8 000:548 JLINK_GetFirmwareString(...) (0000ms, 0531ms total)
T13D8 000:548 JLINK_GetDLLVersion()  returns 51205 (0000ms, 0531ms total)
T13D8 000:548 JLINK_GetCompileDateTime() (0000ms, 0531ms total)
T13D8 000:548 JLINK_GetFirmwareString(...) (0000ms, 0531ms total)
T13D8 000:548 JLINK_GetHardwareVersion()  returns 0x13880 (0000ms, 0531ms total)
T13D8 000:548 JLINK_TIF_Select(JLINKARM_TIF_SWD)  returns 0x00 (0001ms, 0532ms total)
T13D8 000:549 JLINK_SetSpeed(3000) (0001ms, 0533ms total)
T13D8 000:550 JLINK_GetId() >0x108 TIF>Found SWD-DP with ID 0x2BA01477 >0x0D TIF> >0x28 TIF> >0x0D TIF> >0x28 TIF> >0x0D TIF> >0x28 TIF> >0x0D TIF> >0x28 TIF> >0x35 TIF> >0x0D TIF> >0x28 TIF> >0x0D TIF> >0x28 TIF> >0x35 TIF> >0x35 TIF> >0x35 TIF> >0x0D TIF> >0x28 TIF> >0x0D TIF> >0x28 TIF> >0x0D TIF> >0x28 TIF> >0x35 TIF> >0x35 TIF> >0x0D TIF> >0x28 TIF> >0x35 TIF> >0x35 TIF>Found Cortex-M4 r0p1, Little endian. -- CPU_ReadMem(4 bytes @ 0xE000EDF0) -- CPU_ReadMem(4 bytes @ 0xE0002000)
FPUnit: 6 code (BP) slots and 2 literal slots -- CPU_ReadMem(4 bytes @ 0xE000EDFC) -- CPU_ReadMem(4 bytes @ 0xE0001000) -- CPU_WriteMem(4 bytes @ 0xE0001000) -- CPU_ReadMem(4 bytes @ 0xE000ED88) -- CPU_WriteMem(4 bytes @ 0xE000ED88) -- CPU_ReadMem(4 bytes @ 0xE000ED88) -- CPU_WriteMem(4 bytes @ 0xE000ED88)CoreSight components:ROMTbl 0 @ E00FF000 -- CPU_ReadMem(16 bytes @ 0xE00FF000) -- CPU_ReadMem(16 bytes @ 0xE000EFF0) -- CPU_ReadMem(16 bytes @ 0xE000EFE0)
ROMTbl 0 [0]: FFF0F000, CID: B105E00D, PID: 000BB00C SCS -- CPU_ReadMem(16 bytes @ 0xE0001FF0) -- CPU_ReadMem(16 bytes @ 0xE0001FE0)ROMTbl 0 [1]: FFF02000, CID: B105E00D, PID: 003BB002 DWT -- CPU_ReadMem(16 bytes @ 0xE0002FF0) -- CPU_ReadMem(16 bytes @ 0xE0002FE0)ROMTbl 0 [2]: FFF03000, CID: B105E00D, PID: 002BB003 FPB -- CPU_ReadMem(16 bytes @ 0xE0000FF0) -- CPU_ReadMem(16 bytes @ 0xE0000FE0)ROMTbl 0 [3]: FFF01000, CID: B105E00D, PID: 003BB001 ITM -- CPU_ReadMem(16 bytes @ 0xE00FF010)
 -- CPU_ReadMem(16 bytes @ 0xE0040FF0) -- CPU_ReadMem(16 bytes @ 0xE0040FE0)ROMTbl 0 [4]: FFF41000, CID: B105900D, PID: 000BB9A1 TPIU -- CPU_ReadMem(16 bytes @ 0xE0041FF0) -- CPU_ReadMem(16 bytes @ 0xE0041FE0)ROMTbl 0 [5]: FFF42000, CID: B105900D, PID: 000BB925 ETM >0x35 TIF>  returns 0x2BA01477 (0024ms, 0557ms total)
T13D8 000:574 JLINK_GetDLLVersion()  returns 51205 (0000ms, 0557ms total)
T13D8 000:574 JLINK_CORE_GetFound()  returns 0xE0000FF (0000ms, 0557ms total)
T13D8 000:574 JLINK_GetDebugInfo(0x100) -- Value=0xE00FF000  returns 0x00 (0000ms, 0557ms total)
T13D8 000:574 JLINK_GetDebugInfo(0x100) -- Value=0xE00FF000  returns 0x00 (0000ms, 0557ms total)
T13D8 000:574 JLINK_GetDebugInfo(0x101) -- Value=0xE0041000  returns 0x00 (0000ms, 0557ms total)
T13D8 000:574 JLINK_GetDebugInfo(0x102) -- Value=0x00000000  returns 0x00 (0000ms, 0557ms total)
T13D8 000:574 JLINK_GetDebugInfo(0x103) -- Value=0xE0040000  returns 0x00 (0000ms, 0557ms total)
T13D8 000:574 JLINK_GetDebugInfo(0x104) -- Value=0xE0000000  returns 0x00 (0000ms, 0557ms total)
T13D8 000:574 JLINK_GetDebugInfo(0x105) -- Value=0xE0001000  returns 0x00 (0000ms, 0557ms total)
T13D8 000:574 JLINK_GetDebugInfo(0x106) -- Value=0xE0002000  returns 0x00 (0000ms, 0557ms total)
T13D8 000:574 JLINK_GetDebugInfo(0x107) -- Value=0xE000E000  returns 0x00 (0000ms, 0557ms total)
T13D8 000:574 JLINK_GetDebugInfo(0x10C) -- Value=0xE000EDF0  returns 0x00 (0000ms, 0557ms total)
T13D8 000:574 JLINK_ReadMemU32(0xE000EF40, 0x0001 Items, ...) -- CPU is running -- CPU_ReadMem(4 bytes @ 0xE000EF40) - Data: 21 00 11 10  returns 0x01 (0001ms, 0558ms total)
T13D8 000:575 JLINK_ReadMemU32(0xE000EF44, 0x0001 Items, ...) -- CPU is running -- CPU_ReadMem(4 bytes @ 0xE000EF44) - Data: 11 00 00 11  returns 0x01 (0001ms, 0559ms total)
T13D8 000:576 JLINK_ReadMemU32(0xE000ED00, 0x0001 Items, ...) -- CPU is running -- CPU_ReadMem(4 bytes @ 0xE000ED00) - Data: 41 C2 0F 41  returns 0x01 (0001ms, 0560ms total)
T13D8 000:577 JLINK_SetResetType(JLINKARM_RESET_TYPE_NORMAL)  returns JLINKARM_RESET_TYPE_NORMAL (0000ms, 0560ms total)
T13D8 000:577 JLINK_Reset() -- CPU is running -- CPU_WriteMem(4 bytes @ 0xE000EDF0) -- CPU is running -- CPU_WriteMem(4 bytes @ 0xE000EDFC) >0x35 TIF> -- CPU is running -- CPU_WriteMem(4 bytes @ 0xE000ED0C) -- CPU is running -- CPU_ReadMem(4 bytes @ 0xE000EDF0) -- CPU is running -- CPU_ReadMem(4 bytes @ 0xE000EDF0) -- CPU is running -- CPU_WriteMem(4 bytes @ 0xE000EDF0) -- CPU is running -- CPU_WriteMem(4 bytes @ 0xE000EDFC) -- CPU is running -- CPU_ReadMem(4 bytes @ 0xE000EDF0)
 -- CPU_WriteMem(4 bytes @ 0xE0002000) -- CPU_ReadMem(4 bytes @ 0xE000EDFC) -- CPU_ReadMem(4 bytes @ 0xE0001000) (0022ms, 0582ms total)
T13D8 000:599 JLINK_ReadReg(R15 (PC))  returns 0x000008E4 (0000ms, 0582ms total)
T13D8 000:599 JLINK_ReadReg(XPSR)  returns 0x01000000 (0000ms, 0582ms total)
T13D8 000:599 JLINK_Halt()  returns 0x00 (0000ms, 0582ms total)
T13D8 000:599 JLINK_IsHalted()  returns TRUE (0000ms, 0582ms total)
T13D8 000:599 JLINK_ReadMemU32(0xE000EDF0, 0x0001 Items, ...) -- CPU_ReadMem(4 bytes @ 0xE000EDF0) - Data: 03 00 03 00  returns 0x01 (0002ms, 0584ms total)
T13D8 000:601 JLINK_WriteU32(0xE000EDF0, 0xA05F0003) -- CPU_WriteMem(4 bytes @ 0xE000EDF0)  returns 0x00 (0000ms, 0584ms total)
T13D8 000:601 JLINK_WriteU32(0xE000EDFC, 0x01000000) -- CPU_WriteMem(4 bytes @ 0xE000EDFC)  returns 0x00 (0001ms, 0585ms total)
T13D8 000:602 JLINK_GetHWStatus(...)  returns 0x00 (0001ms, 0586ms total)
T13D8 000:603 JLINK_GetNumBPUnits(Type = 0xFFFFFF00)  returns 0x06 (0000ms, 0586ms total)
T13D8 000:603 JLINK_GetNumBPUnits(Type = 0xF0)  returns 0x2000 (0000ms, 0586ms total)
T13D8 000:603 JLINK_GetNumWPUnits()  returns 0x04 (0000ms, 0586ms total)
T13D8 000:603 JLINK_GetSpeed()  returns 0x7D0 (0000ms, 0586ms total)
T13D8 000:603 JLINK_ReadMemU32(0xE000E004, 0x0001 Items, ...) -- CPU_ReadMem(4 bytes @ 0xE000E004) - Data: 01 00 00 00  returns 0x01 (0001ms, 0587ms total)
T13D8 000:604 JLINK_ReadMemU32(0xE000E004, 0x0001 Items, ...) -- CPU_ReadMem(4 bytes @ 0xE000E004) - Data: 01 00 00 00  returns 0x01 (0001ms, 0588ms total)
T13D8 000:605 JLINK_WriteMem(0xE0001000, 0x001C Bytes, ...) - Data: 01 00 00 00 00 00 00 00 00 00 00 00 00 00 00 00 ... -- CPU_WriteMem(28 bytes @ 0xE0001000)  returns 0x1C (0002ms, 0590ms total)
T13D8 000:608 JLINK_ReadMem (0xE0001000, 0x001C Bytes, ...) -- CPU_ReadMem(28 bytes @ 0xE0001000) - Data: 01 00 00 40 00 00 00 00 00 00 00 00 00 00 00 00 ...  returns 0x00 (0001ms, 0592ms total)
T13D8 000:609 JLINK_ReadReg(R15 (PC))  returns 0x000008E4 (0000ms, 0592ms total)
T13D8 000:609 JLINK_ReadReg(XPSR)  returns 0x01000000 (0000ms, 0592ms total)
T13D8 000:683 JLINK_SetResetType(JLINKARM_RESET_TYPE_NORMAL)  returns JLINKARM_RESET_TYPE_NORMAL (0000ms, 0592ms total)
T13D8 000:683 JLINK_Reset() -- CPU_WriteMem(4 bytes @ 0xE000EDF0) -- CPU_WriteMem(4 bytes @ 0xE000EDFC) >0x35 TIF> -- CPU_WriteMem(4 bytes @ 0xE000ED0C) -- CPU_ReadMem(4 bytes @ 0xE000EDF0) -- CPU_ReadMem(4 bytes @ 0xE000EDF0) -- CPU_WriteMem(4 bytes @ 0xE000EDF0) -- CPU_WriteMem(4 bytes @ 0xE000EDFC) -- CPU is running -- CPU_ReadMem(4 bytes @ 0xE000EDF0) -- CPU_WriteMem(4 bytes @ 0xE0002000) -- CPU_ReadMem(4 bytes @ 0xE000EDFC) -- CPU_ReadMem(4 bytes @ 0xE0001000) (0023ms, 0615ms total)
T13D8 000:706 JLINK_ReadReg(R15 (PC))  returns 0x000008E4 (0000ms, 0615ms total)
T13D8 000:706 JLINK_ReadReg(XPSR)  returns 0x01000000 (0000ms, 0615ms total)
T13D8 000:706 JLINK_ReadMem (0x000008E4, 0x003C Bytes, ...) -- CPU_ReadMem(128 bytes @ 0x000008C0) -- Updating C cache (128 bytes @ 0x000008C0) -- Read from C cache (60 bytes @ 0x000008E4) - Data: 06 4B 18 47 06 4A 10 60 01 68 81 F3 08 88 40 68 ...  returns 0x00 (0002ms, 0617ms total)
T13D8 001:479 JLINK_ReadMem (0x200025E8, 0x0020 Bytes, ...) -- CPU_ReadMem(128 bytes @ 0x200025C0) -- Updating C cache (128 bytes @ 0x200025C0) -- Read from C cache (32 bytes @ 0x200025E8) - Data: 00 00 01 00 00 00 00 00 00 00 00 00 00 00 00 00 ...  returns 0x00 (0002ms, 0619ms total)
T074C 001:505 JLINK_SetBPEx(Addr = 0x0001F2B8, Type = 0xFFFFFFF2)  returns 0x00000001 (0000ms, 0619ms total)
T074C 001:505 JLINK_Go() -- CPU_WriteMem(4 bytes @ 0xE0002000) -- CPU_ReadMem(4 bytes @ 0xE0001000) -- CPU_WriteMem(4 bytes @ 0xE0002008) -- CPU_WriteMem(4 bytes @ 0xE000200C) -- CPU_WriteMem(4 bytes @ 0xE0002010) -- CPU_WriteMem(4 bytes @ 0xE0002014) -- CPU_WriteMem(4 bytes @ 0xE0002018) -- CPU_WriteMem(4 bytes @ 0xE000201C) -- CPU_WriteMem(4 bytes @ 0xE0001004) (0005ms, 0624ms total)
T074C 001:612 JLINK_IsHalted()  returns TRUE (0003ms, 0627ms total)
T074C 001:615 JLINK_Halt()  returns 0x00 (0000ms, 0624ms total)
T074C 001:615 JLINK_IsHalted()  returns TRUE (0000ms, 0624ms total)
T074C 001:615 JLINK_IsHalted()  returns TRUE (0000ms, 0624ms total)
T074C 001:615 JLINK_IsHalted()  returns TRUE (0000ms, 0624ms total)
T074C 001:615 JLINK_ReadReg(R15 (PC))  returns 0x0001F2B8 (0000ms, 0624ms total)
T074C 001:615 JLINK_ReadReg(XPSR)  returns 0x61000000 (0000ms, 0624ms total)
T074C 001:615 JLINK_ClrBPEx(BPHandle = 0x00000001)  returns 0x00 (0000ms, 0624ms total)
T074C 001:615 JLINK_ReadMemU32(0xE000ED30, 0x0001 Items, ...) -- CPU_ReadMem(4 bytes @ 0xE000ED30) - Data: 03 00 00 00  returns 0x01 (0002ms, 0626ms total)
T074C 001:617 JLINK_ReadMemU32(0xE0001028, 0x0001 Items, ...) -- CPU_ReadMem(4 bytes @ 0xE0001028) - Data: 00 00 00 00  returns 0x01 (0000ms, 0626ms total)
T074C 001:617 JLINK_ReadMemU32(0xE0001038, 0x0001 Items, ...) -- CPU_ReadMem(4 bytes @ 0xE0001038) - Data: 00 02 00 00  returns 0x01 (0001ms, 0627ms total)
T074C 001:618 JLINK_ReadMemU32(0xE0001048, 0x0001 Items, ...) -- CPU_ReadMem(4 bytes @ 0xE0001048) - Data: 00 00 00 00  returns 0x01 (0001ms, 0628ms total)
T074C 001:619 JLINK_ReadMemU32(0xE0001058, 0x0001 Items, ...) -- CPU_ReadMem(4 bytes @ 0xE0001058) - Data: 00 00 00 00  returns 0x01 (0000ms, 0628ms total)
T074C 001:620 JLINK_ReadReg(R0)  returns 0x0001F2B9 (0000ms, 0628ms total)
T074C 001:620 JLINK_ReadReg(R1)  returns 0x200049A8 (0000ms, 0628ms total)
T074C 001:620 JLINK_ReadReg(R2)  returns 0x00000000 (0000ms, 0628ms total)
T074C 001:620 JLINK_ReadReg(R3)  returns 0x0001CFA9 (0000ms, 0628ms total)
T074C 001:620 JLINK_ReadReg(R4)  returns 0x00020BD4 (0000ms, 0628ms total)
T074C 001:620 JLINK_ReadReg(R5)  returns 0x00020BD4 (0000ms, 0628ms total)
T074C 001:620 JLINK_ReadReg(R6)  returns 0x00000000 (0000ms, 0628ms total)
T074C 001:620 JLINK_ReadReg(R7)  returns 0x00000000 (0000ms, 0628ms total)
T074C 001:620 JLINK_ReadReg(R8)  returns 0x00000000 (0000ms, 0628ms total)
T074C 001:620 JLINK_ReadReg(R9)  returns 0x00000000 (0000ms, 0628ms total)
T074C 001:620 JLINK_ReadReg(R10)  returns 0x00000000 (0000ms, 0628ms total)
T074C 001:620 JLINK_ReadReg(R11)  returns 0x00000000 (0000ms, 0628ms total)
T074C 001:620 JLINK_ReadReg(R12)  returns 0x00000000 (0000ms, 0628ms total)
T074C 001:620 JLINK_ReadReg(R13 (SP))  returns 0x200049A8 (0000ms, 0628ms total)
T074C 001:620 JLINK_ReadReg(R14)  returns 0x0001C915 (0000ms, 0628ms total)
T074C 001:620 JLINK_ReadReg(R15 (PC))  returns 0x0001F2B8 (0000ms, 0628ms total)
T074C 001:620 JLINK_ReadReg(XPSR)  returns 0x61000000 (0000ms, 0628ms total)
T074C 001:620 JLINK_ReadReg(MSP)  returns 0x200049A8 (0000ms, 0628ms total)
T074C 001:620 JLINK_ReadReg(PSP)  returns 0x00000000 (0000ms, 0628ms total)
T074C 001:620 JLINK_ReadReg(CFBP)  returns 0x00000000 (0000ms, 0628ms total)
T074C 001:620 JLINK_ReadReg(FPSCR)  returns 0x00000000 (0007ms, 0635ms total)
T074C 001:627 JLINK_ReadReg(FPS0)  returns 0x00000000 (0000ms, 0635ms total)
T074C 001:627 JLINK_ReadReg(FPS1)  returns 0x00000000 (0000ms, 0635ms total)
T074C 001:627 JLINK_ReadReg(FPS2)  returns 0x00000000 (0000ms, 0635ms total)
T074C 001:627 JLINK_ReadReg(FPS3)  returns 0x00000000 (0000ms, 0635ms total)
T074C 001:627 JLINK_ReadReg(FPS4)  returns 0x00000000 (0000ms, 0635ms total)
T074C 001:627 JLINK_ReadReg(FPS5)  returns 0x00000000 (0000ms, 0635ms total)
T074C 001:627 JLINK_ReadReg(FPS6)  returns 0x00000000 (0000ms, 0635ms total)
T074C 001:627 JLINK_ReadReg(FPS7)  returns 0x00000000 (0000ms, 0635ms total)
T074C 001:627 JLINK_ReadReg(FPS8)  returns 0x00000000 (0000ms, 0635ms total)
T074C 001:627 JLINK_ReadReg(FPS9)  returns 0x00000000 (0000ms, 0635ms total)
T074C 001:627 JLINK_ReadReg(FPS10)  returns 0x00000000 (0000ms, 0635ms total)
T074C 001:627 JLINK_ReadReg(FPS11)  returns 0x00000000 (0000ms, 0635ms total)
T074C 001:627 JLINK_ReadReg(FPS12)  returns 0x00000000 (0000ms, 0635ms total)
T074C 001:627 JLINK_ReadReg(FPS13)  returns 0x00000000 (0000ms, 0635ms total)
T074C 001:627 JLINK_ReadReg(FPS14)  returns 0x00000000 (0000ms, 0635ms total)
T074C 001:627 JLINK_ReadReg(FPS15)  returns 0x00000000 (0000ms, 0635ms total)
T074C 001:627 JLINK_ReadReg(FPS16)  returns 0x00000000 (0000ms, 0635ms total)
T074C 001:627 JLINK_ReadReg(FPS17)  returns 0x00000000 (0000ms, 0635ms total)
T074C 001:627 JLINK_ReadReg(FPS18)  returns 0x00000000 (0000ms, 0635ms total)
T074C 001:627 JLINK_ReadReg(FPS19)  returns 0x00000000 (0000ms, 0635ms total)
T074C 001:627 JLINK_ReadReg(FPS20)  returns 0x00000000 (0000ms, 0635ms total)
T074C 001:627 JLINK_ReadReg(FPS21)  returns 0x00000000 (0000ms, 0635ms total)
T074C 001:627 JLINK_ReadReg(FPS22)  returns 0x00000000 (0000ms, 0635ms total)
T074C 001:627 JLINK_ReadReg(FPS23)  returns 0x00000000 (0000ms, 0635ms total)
T074C 001:627 JLINK_ReadReg(FPS24)  returns 0x00000000 (0000ms, 0635ms total)
T074C 001:627 JLINK_ReadReg(FPS25)  returns 0x00000000 (0001ms, 0636ms total)
T074C 001:628 JLINK_ReadReg(FPS26)  returns 0x00000000 (0000ms, 0636ms total)
T074C 001:628 JLINK_ReadReg(FPS27)  returns 0x00000000 (0000ms, 0636ms total)
T074C 001:628 JLINK_ReadReg(FPS28)  returns 0x00000000 (0000ms, 0636ms total)
T074C 001:628 JLINK_ReadReg(FPS29)  returns 0x00000000 (0000ms, 0636ms total)
T074C 001:628 JLINK_ReadReg(FPS30)  returns 0x00000000 (0000ms, 0636ms total)
T074C 001:628 JLINK_ReadReg(FPS31)  returns 0x00000000 (0000ms, 0636ms total)
T13D8 001:628 JLINK_ReadMem (0x00000000, 0x0004 Bytes, ...) -- CPU_ReadMem(64 bytes @ 0x00000000) -- Updating C cache (64 bytes @ 0x00000000) -- Read from C cache (4 bytes @ 0x00000000) - Data: 00 04 00 20  returns 0x00 (0003ms, 0639ms total)
T13D8 001:632 JLINK_ReadMem (0x200025E8, 0x0020 Bytes, ...) -- CPU_ReadMem(128 bytes @ 0x200025C0) -- Updating C cache (128 bytes @ 0x200025C0) -- Read from C cache (32 bytes @ 0x200025E8) - Data: 00 00 00 00 00 00 00 00 00 00 00 00 00 00 00 00 ...  returns 0x00 (0002ms, 0641ms total)
T13D8 001:634 JLINK_ReadMem (0x0001F2B8, 0x003C Bytes, ...) -- CPU_ReadMem(128 bytes @ 0x0001F280) -- Updating C cache (128 bytes @ 0x0001F280) -- Read from C cache (60 bytes @ 0x0001F2B8) - Data: 00 23 A6 B0 5C 4A 05 21 18 46 FE F7 91 FC 08 B1 ...  returns 0x00 (0003ms, 0644ms total)
T13D8 008:817 JLINK_ReadMem (0x20002090, 0x0004 Bytes, ...) -- CPU_ReadMem(64 bytes @ 0x20002080) -- Updating C cache (64 bytes @ 0x20002080) -- Read from C cache (4 bytes @ 0x20002090) - Data: 00 00 00 00  returns 0x00 (0002ms, 0646ms total)
T13D8 008:819 JLINK_ReadMem (0x20002094, 0x0002 Bytes, ...) -- Read from C cache (2 bytes @ 0x20002094) - Data: 00 00  returns 0x00 (0000ms, 0646ms total)
T074C 015:427 JLINK_SetBPEx(Addr = 0x0001CEB2, Type = 0xFFFFFFF2)  returns 0x00000002 (0000ms, 0646ms total)
T074C 015:427 JLINK_Go() -- CPU_WriteMem(4 bytes @ 0xE0002000) -- CPU_ReadMem(4 bytes @ 0xE0001000) -- CPU_WriteMem(4 bytes @ 0xE0002008) (0004ms, 0650ms total)
T074C 015:532 JLINK_IsHalted()  returns FALSE (0001ms, 0651ms total)
T074C 015:633 JLINK_IsHalted()  returns FALSE (0001ms, 0651ms total)
T074C 015:734 JLINK_IsHalted()  returns FALSE (0000ms, 0650ms total)
T074C 015:835 JLINK_IsHalted()  returns FALSE (0000ms, 0650ms total)
T074C 015:937 JLINK_IsHalted()  returns FALSE (0000ms, 0650ms total)
T074C 016:038 JLINK_IsHalted()  returns FALSE (0000ms, 0650ms total)
T074C 016:138 JLINK_IsHalted()  returns FALSE (0000ms, 0650ms total)
T074C 016:240 JLINK_IsHalted()  returns FALSE (0000ms, 0650ms total)
T074C 016:342 JLINK_IsHalted()  returns FALSE (0000ms, 0650ms total)
T074C 016:443 JLINK_IsHalted()  returns TRUE (0003ms, 0653ms total)
T074C 016:446 JLINK_Halt()  returns 0x00 (0000ms, 0650ms total)
T074C 016:446 JLINK_IsHalted()  returns TRUE (0000ms, 0650ms total)
T074C 016:446 JLINK_IsHalted()  returns TRUE (0000ms, 0650ms total)
T074C 016:446 JLINK_IsHalted()  returns TRUE (0000ms, 0650ms total)
T074C 016:446 JLINK_ReadReg(R15 (PC))  returns 0x0001CEB2 (0000ms, 0650ms total)
T074C 016:446 JLINK_ReadReg(XPSR)  returns 0x01000021 (0000ms, 0650ms total)
T074C 016:446 JLINK_ClrBPEx(BPHandle = 0x00000002)  returns 0x00 (0000ms, 0650ms total)
T074C 016:446 JLINK_ReadMemU32(0xE000ED30, 0x0001 Items, ...) -- CPU_ReadMem(4 bytes @ 0xE000ED30) - Data: 03 00 00 00  returns 0x01 (0002ms, 0652ms total)
T074C 016:448 JLINK_ReadMemU32(0xE0001028, 0x0001 Items, ...) -- CPU_ReadMem(4 bytes @ 0xE0001028) - Data: 00 00 00 00  returns 0x01 (0000ms, 0652ms total)
T074C 016:448 JLINK_ReadMemU32(0xE0001038, 0x0001 Items, ...) -- CPU_ReadMem(4 bytes @ 0xE0001038) - Data: 00 02 00 00  returns 0x01 (0001ms, 0653ms total)
T074C 016:449 JLINK_ReadMemU32(0xE0001048, 0x0001 Items, ...) -- CPU_ReadMem(4 bytes @ 0xE0001048) - Data: 00 00 00 00  returns 0x01 (0001ms, 0654ms total)
T074C 016:450 JLINK_ReadMemU32(0xE0001058, 0x0001 Items, ...) -- CPU_ReadMem(4 bytes @ 0xE0001058) - Data: 00 00 00 00  returns 0x01 (0001ms, 0655ms total)
T074C 016:451 JLINK_ReadReg(R0)  returns 0x5000050C (0000ms, 0655ms total)
T074C 016:451 JLINK_ReadReg(R1)  returns 0x00000010 (0000ms, 0655ms total)
T074C 016:451 JLINK_ReadReg(R2)  returns 0x00000000 (0000ms, 0655ms total)
T074C 016:451 JLINK_ReadReg(R3)  returns 0x00000000 (0000ms, 0655ms total)
T074C 016:451 JLINK_ReadReg(R4)  returns 0x20002090 (0000ms, 0655ms total)
T074C 016:451 JLINK_ReadReg(R5)  returns 0x2000212C (0000ms, 0655ms total)
T074C 016:451 JLINK_ReadReg(R6)  returns 0x00000000 (0000ms, 0655ms total)
T074C 016:451 JLINK_ReadReg(R7)  returns 0x00004CCE (0000ms, 0655ms total)
T074C 016:451 JLINK_ReadReg(R8)  returns 0x00000000 (0000ms, 0655ms total)
T074C 016:451 JLINK_ReadReg(R9)  returns 0x00000000 (0000ms, 0655ms total)
T074C 016:451 JLINK_ReadReg(R10)  returns 0x00000000 (0000ms, 0655ms total)
T074C 016:451 JLINK_ReadReg(R11)  returns 0x00000000 (0000ms, 0655ms total)
T074C 016:451 JLINK_ReadReg(R12)  returns 0x00080000 (0000ms, 0655ms total)
T074C 016:451 JLINK_ReadReg(R13 (SP))  returns 0x200048A8 (0000ms, 0655ms total)
T074C 016:451 JLINK_ReadReg(R14)  returns 0x0001CEB3 (0000ms, 0655ms total)
T074C 016:451 JLINK_ReadReg(R15 (PC))  returns 0x0001CEB2 (0000ms, 0655ms total)
T074C 016:451 JLINK_ReadReg(XPSR)  returns 0x01000021 (0000ms, 0655ms total)
T074C 016:451 JLINK_ReadReg(MSP)  returns 0x200048A8 (0000ms, 0655ms total)
T074C 016:451 JLINK_ReadReg(PSP)  returns 0x00000000 (0000ms, 0655ms total)
T074C 016:451 JLINK_ReadReg(CFBP)  returns 0x00000000 (0000ms, 0655ms total)
T074C 016:451 JLINK_ReadReg(FPSCR)  returns 0x00000000 (0007ms, 0662ms total)
T074C 016:458 JLINK_ReadReg(FPS0)  returns 0x00000000 (0000ms, 0662ms total)
T074C 016:458 JLINK_ReadReg(FPS1)  returns 0x00000000 (0000ms, 0662ms total)
T074C 016:458 JLINK_ReadReg(FPS2)  returns 0x00000000 (0000ms, 0662ms total)
T074C 016:458 JLINK_ReadReg(FPS3)  returns 0x00000000 (0000ms, 0662ms total)
T074C 016:458 JLINK_ReadReg(FPS4)  returns 0x00000000 (0000ms, 0662ms total)
T074C 016:458 JLINK_ReadReg(FPS5)  returns 0x00000000 (0000ms, 0662ms total)
T074C 016:458 JLINK_ReadReg(FPS6)  returns 0x00000000 (0000ms, 0662ms total)
T074C 016:458 JLINK_ReadReg(FPS7)  returns 0x00000000 (0000ms, 0662ms total)
T074C 016:458 JLINK_ReadReg(FPS8)  returns 0x00000000 (0000ms, 0662ms total)
T074C 016:458 JLINK_ReadReg(FPS9)  returns 0x00000000 (0000ms, 0662ms total)
T074C 016:458 JLINK_ReadReg(FPS10)  returns 0x00000000 (0000ms, 0662ms total)
T074C 016:458 JLINK_ReadReg(FPS11)  returns 0x00000000 (0000ms, 0662ms total)
T074C 016:458 JLINK_ReadReg(FPS12)  returns 0x00000000 (0000ms, 0662ms total)
T074C 016:458 JLINK_ReadReg(FPS13)  returns 0x00000000 (0000ms, 0662ms total)
T074C 016:458 JLINK_ReadReg(FPS14)  returns 0x00000000 (0001ms, 0663ms total)
T074C 016:459 JLINK_ReadReg(FPS15)  returns 0x00000000 (0000ms, 0663ms total)
T074C 016:459 JLINK_ReadReg(FPS16)  returns 0x00000000 (0000ms, 0663ms total)
T074C 016:459 JLINK_ReadReg(FPS17)  returns 0x00000000 (0000ms, 0663ms total)
T074C 016:459 JLINK_ReadReg(FPS18)  returns 0x00000000 (0000ms, 0663ms total)
T074C 016:459 JLINK_ReadReg(FPS19)  returns 0x00000000 (0000ms, 0663ms total)
T074C 016:459 JLINK_ReadReg(FPS20)  returns 0x00000000 (0000ms, 0663ms total)
T074C 016:459 JLINK_ReadReg(FPS21)  returns 0x00000000 (0000ms, 0663ms total)
T074C 016:459 JLINK_ReadReg(FPS22)  returns 0x00000000 (0000ms, 0663ms total)
T074C 016:459 JLINK_ReadReg(FPS23)  returns 0x00000000 (0000ms, 0663ms total)
T074C 016:459 JLINK_ReadReg(FPS24)  returns 0x00000000 (0000ms, 0663ms total)
T074C 016:459 JLINK_ReadReg(FPS25)  returns 0x00000000 (0000ms, 0663ms total)
T074C 016:459 JLINK_ReadReg(FPS26)  returns 0x00000000 (0000ms, 0663ms total)
T074C 016:459 JLINK_ReadReg(FPS27)  returns 0x00000000 (0000ms, 0663ms total)
T074C 016:459 JLINK_ReadReg(FPS28)  returns 0x00000000 (0000ms, 0663ms total)
T074C 016:459 JLINK_ReadReg(FPS29)  returns 0x00000000 (0000ms, 0663ms total)
T074C 016:459 JLINK_ReadReg(FPS30)  returns 0x00000000 (0000ms, 0663ms total)
T074C 016:459 JLINK_ReadReg(FPS31)  returns 0x00000000 (0000ms, 0663ms total)
T13D8 016:459 JLINK_ReadMem (0x200048AC, 0x0004 Bytes, ...) -- CPU_ReadMem(64 bytes @ 0x20004880) -- Updating C cache (64 bytes @ 0x20004880) -- Read from C cache (4 bytes @ 0x200048AC) - Data: CB 01 02 00  returns 0x00 (0002ms, 0665ms total)
T13D8 016:462 JLINK_ReadMem (0x200048A8, 0x0004 Bytes, ...) -- Read from C cache (4 bytes @ 0x200048A8) - Data: 08 26 00 20  returns 0x00 (0000ms, 0665ms total)
T13D8 016:462 JLINK_ReadMem (0x200048C4, 0x0004 Bytes, ...) -- CPU_ReadMem(64 bytes @ 0x200048C0) -- Updating C cache (64 bytes @ 0x200048C0) -- Read from C cache (4 bytes @ 0x200048C4) - Data: F9 FF FF FF  returns 0x00 (0001ms, 0666ms total)
T13D8 016:463 JLINK_ReadMem (0x200048E0, 0x0004 Bytes, ...) -- Read from C cache (4 bytes @ 0x200048E0) - Data: F6 14 01 00  returns 0x00 (0000ms, 0666ms total)
T13D8 016:463 JLINK_ReadMem (0x200048E4, 0x0004 Bytes, ...) -- Read from C cache (4 bytes @ 0x200048E4) - Data: 00 00 00 21  returns 0x00 (0000ms, 0666ms total)
T13D8 016:463 JLINK_ReadMem (0x200048DC, 0x0004 Bytes, ...) -- Read from C cache (4 bytes @ 0x200048DC) - Data: F5 14 01 00  returns 0x00 (0000ms, 0666ms total)
T13D8 016:463 JLINK_ReadMem (0xE000ED28, 0x0004 Bytes, ...) -- CPU_ReadMem(4 bytes @ 0xE000ED28) - Data: 00 00 00 00  returns 0x00 (0001ms, 0667ms total)
T13D8 016:464 JLINK_ReadMem (0x200048D0, 0x0004 Bytes, ...) -- Read from C cache (4 bytes @ 0x200048D0) - Data: 2C 00 00 00  returns 0x00 (0000ms, 0667ms total)
T13D8 016:464 JLINK_ReadMem (0x200048D4, 0x0004 Bytes, ...) -- Read from C cache (4 bytes @ 0x200048D4) - Data: C4 22 00 20  returns 0x00 (0000ms, 0667ms total)
T13D8 016:464 JLINK_ReadMem (0x200048D8, 0x0004 Bytes, ...) -- Read from C cache (4 bytes @ 0x200048D8) - Data: 00 00 08 00  returns 0x00 (0000ms, 0667ms total)
T13D8 016:464 JLINK_ReadMem (0x00000000, 0x0004 Bytes, ...) -- CPU_ReadMem(64 bytes @ 0x00000000) -- Updating C cache (64 bytes @ 0x00000000) -- Read from C cache (4 bytes @ 0x00000000) - Data: 00 04 00 20  returns 0x00 (0002ms, 0669ms total)
T13D8 016:467 JLINK_ReadMem (0x200025E8, 0x0020 Bytes, ...) -- CPU_ReadMem(128 bytes @ 0x200025C0) -- Updating C cache (128 bytes @ 0x200025C0) -- Read from C cache (32 bytes @ 0x200025E8) - Data: 01 00 00 00 00 00 00 00 00 00 00 00 00 00 00 00 ...  returns 0x00 (0003ms, 0672ms total)
T13D8 016:472 JLINK_ReadMem (0x0001CEB2, 0x0002 Bytes, ...) -- CPU_ReadMem(64 bytes @ 0x0001CE80) -- Updating C cache (64 bytes @ 0x0001CE80) -- Read from C cache (2 bytes @ 0x0001CEB2) - Data: A0 88  returns 0x00 (0002ms, 0674ms total)
T13D8 016:474 JLINK_ReadMem (0x0001CEB4, 0x003C Bytes, ...) -- CPU_ReadMem(64 bytes @ 0x0001CEC0) -- Updating C cache (64 bytes @ 0x0001CEC0) -- Read from C cache (60 bytes @ 0x0001CEB4) - Data: B0 F5 28 7F 01 D2 00 1D 00 E0 00 20 A0 80 16 48 ...  returns 0x00 (0001ms, 0675ms total)
T074C 113:228 JLINK_Step() -- Read from C cache (2 bytes @ 0x0001CEB2) -- CPU_ReadMem(4 bytes @ 0xE000ED18) -- CPU_WriteMem(4 bytes @ 0xE000ED18) -- CPU_ReadMem(4 bytes @ 0xE000ED18) -- CPU_WriteMem(4 bytes @ 0xE000ED18) -- CPU_ReadMem(4 bytes @ 0xE0001004) -- CPU_ReadMem(64 bytes @ 0x20002080) -- Updating C cache (64 bytes @ 0x20002080) -- Read from C cache (2 bytes @ 0x20002094) -- Simulated  returns 0x00 (0005ms, 0680ms total)
T074C 113:233 JLINK_ReadReg(R15 (PC))  returns 0x0001CEB4 (0000ms, 0680ms total)
T074C 113:233 JLINK_ReadReg(XPSR)  returns 0x01000021 (0000ms, 0680ms total)
T074C 113:233 JLINK_SetBPEx(Addr = 0x0001CEB2, Type = 0xFFFFFFF2)  returns 0x00000003 (0000ms, 0680ms total)
T074C 113:233 JLINK_Go() -- CPU_WriteMem(4 bytes @ 0xE0002000) -- CPU_ReadMem(4 bytes @ 0xE0001000) -- CPU_WriteMem(4 bytes @ 0xE0001004) (0005ms, 0685ms total)
T074C 113:338 JLINK_IsHalted()  returns TRUE (0004ms, 0689ms total)
T074C 113:342 JLINK_Halt()  returns 0x00 (0000ms, 0685ms total)
T074C 113:342 JLINK_IsHalted()  returns TRUE (0000ms, 0685ms total)
T074C 113:342 JLINK_IsHalted()  returns TRUE (0000ms, 0685ms total)
T074C 113:342 JLINK_IsHalted()  returns TRUE (0000ms, 0685ms total)
T074C 113:342 JLINK_ReadReg(R15 (PC))  returns 0x0001CEB2 (0000ms, 0685ms total)
T074C 113:342 JLINK_ReadReg(XPSR)  returns 0x01000021 (0000ms, 0685ms total)
T074C 113:342 JLINK_ClrBPEx(BPHandle = 0x00000003)  returns 0x00 (0000ms, 0685ms total)
T074C 113:342 JLINK_ReadMemU32(0xE000ED30, 0x0001 Items, ...) -- CPU_ReadMem(4 bytes @ 0xE000ED30) - Data: 03 00 00 00  returns 0x01 (0001ms, 0686ms total)
T074C 113:343 JLINK_ReadMemU32(0xE0001028, 0x0001 Items, ...) -- CPU_ReadMem(4 bytes @ 0xE0001028) - Data: 00 00 00 00  returns 0x01 (0001ms, 0687ms total)
T074C 113:344 JLINK_ReadMemU32(0xE0001038, 0x0001 Items, ...) -- CPU_ReadMem(4 bytes @ 0xE0001038) - Data: 00 02 00 00  returns 0x01 (0000ms, 0687ms total)
T074C 113:344 JLINK_ReadMemU32(0xE0001048, 0x0001 Items, ...) -- CPU_ReadMem(4 bytes @ 0xE0001048) - Data: 00 00 00 00  returns 0x01 (0001ms, 0688ms total)
T074C 113:345 JLINK_ReadMemU32(0xE0001058, 0x0001 Items, ...) -- CPU_ReadMem(4 bytes @ 0xE0001058) - Data: 00 00 00 00  returns 0x01 (0001ms, 0689ms total)
T074C 113:346 JLINK_ReadReg(R0)  returns 0x5000050C (0000ms, 0689ms total)
T074C 113:346 JLINK_ReadReg(R1)  returns 0x00000010 (0000ms, 0689ms total)
T074C 113:346 JLINK_ReadReg(R2)  returns 0x00000000 (0000ms, 0689ms total)
T074C 113:346 JLINK_ReadReg(R3)  returns 0x00000000 (0000ms, 0689ms total)
T074C 113:346 JLINK_ReadReg(R4)  returns 0x20002090 (0000ms, 0689ms total)
T074C 113:346 JLINK_ReadReg(R5)  returns 0x2000212C (0000ms, 0689ms total)
T074C 113:346 JLINK_ReadReg(R6)  returns 0x002FE837 (0000ms, 0689ms total)
T074C 113:346 JLINK_ReadReg(R7)  returns 0x00008000 (0000ms, 0689ms total)
T074C 113:346 JLINK_ReadReg(R8)  returns 0x00000000 (0000ms, 0689ms total)
T074C 113:346 JLINK_ReadReg(R9)  returns 0x00000000 (0000ms, 0689ms total)
T074C 113:346 JLINK_ReadReg(R10)  returns 0x00000000 (0000ms, 0689ms total)
T074C 113:346 JLINK_ReadReg(R11)  returns 0x00000000 (0000ms, 0689ms total)
T074C 113:346 JLINK_ReadReg(R12)  returns 0x00080000 (0000ms, 0689ms total)
T074C 113:346 JLINK_ReadReg(R13 (SP))  returns 0x200048A8 (0000ms, 0689ms total)
T074C 113:346 JLINK_ReadReg(R14)  returns 0x0001CEB3 (0000ms, 0689ms total)
T074C 113:346 JLINK_ReadReg(R15 (PC))  returns 0x0001CEB2 (0000ms, 0689ms total)
T074C 113:346 JLINK_ReadReg(XPSR)  returns 0x01000021 (0000ms, 0689ms total)
T074C 113:346 JLINK_ReadReg(MSP)  returns 0x200048A8 (0000ms, 0689ms total)
T074C 113:346 JLINK_ReadReg(PSP)  returns 0x00000000 (0000ms, 0689ms total)
T074C 113:346 JLINK_ReadReg(CFBP)  returns 0x00000000 (0000ms, 0689ms total)
T074C 113:346 JLINK_ReadReg(FPSCR)  returns 0x00000000 (0005ms, 0694ms total)
T074C 113:351 JLINK_ReadReg(FPS0)  returns 0x00000000 (0000ms, 0694ms total)
T074C 113:351 JLINK_ReadReg(FPS1)  returns 0x00000000 (0000ms, 0694ms total)
T074C 113:351 JLINK_ReadReg(FPS2)  returns 0x00000000 (0000ms, 0694ms total)
T074C 113:351 JLINK_ReadReg(FPS3)  returns 0x00000000 (0000ms, 0694ms total)
T074C 113:351 JLINK_ReadReg(FPS4)  returns 0x00000000 (0000ms, 0694ms total)
T074C 113:351 JLINK_ReadReg(FPS5)  returns 0x00000000 (0001ms, 0695ms total)
T074C 113:352 JLINK_ReadReg(FPS6)  returns 0x00000000 (0000ms, 0695ms total)
T074C 113:352 JLINK_ReadReg(FPS7)  returns 0x00000000 (0000ms, 0695ms total)
T074C 113:352 JLINK_ReadReg(FPS8)  returns 0x00000000 (0000ms, 0695ms total)
T074C 113:352 JLINK_ReadReg(FPS9)  returns 0x00000000 (0000ms, 0695ms total)
T074C 113:352 JLINK_ReadReg(FPS10)  returns 0x00000000 (0000ms, 0695ms total)
T074C 113:352 JLINK_ReadReg(FPS11)  returns 0x00000000 (0000ms, 0695ms total)
T074C 113:352 JLINK_ReadReg(FPS12)  returns 0x00000000 (0000ms, 0695ms total)
T074C 113:352 JLINK_ReadReg(FPS13)  returns 0x00000000 (0000ms, 0695ms total)
T074C 113:352 JLINK_ReadReg(FPS14)  returns 0x00000000 (0000ms, 0695ms total)
T074C 113:352 JLINK_ReadReg(FPS15)  returns 0x00000000 (0000ms, 0695ms total)
T074C 113:352 JLINK_ReadReg(FPS16)  returns 0x00000000 (0000ms, 0695ms total)
T074C 113:352 JLINK_ReadReg(FPS17)  returns 0x00000000 (0000ms, 0695ms total)
T074C 113:352 JLINK_ReadReg(FPS18)  returns 0x00000000 (0000ms, 0695ms total)
T074C 113:352 JLINK_ReadReg(FPS19)  returns 0x00000000 (0000ms, 0695ms total)
T074C 113:352 JLINK_ReadReg(FPS20)  returns 0x00000000 (0000ms, 0695ms total)
T074C 113:352 JLINK_ReadReg(FPS21)  returns 0x00000000 (0000ms, 0695ms total)
T074C 113:352 JLINK_ReadReg(FPS22)  returns 0x00000000 (0000ms, 0695ms total)
T074C 113:352 JLINK_ReadReg(FPS23)  returns 0x00000000 (0000ms, 0695ms total)
T074C 113:352 JLINK_ReadReg(FPS24)  returns 0x00000000 (0000ms, 0695ms total)
T074C 113:352 JLINK_ReadReg(FPS25)  returns 0x00000000 (0000ms, 0695ms total)
T074C 113:352 JLINK_ReadReg(FPS26)  returns 0x00000000 (0000ms, 0695ms total)
T074C 113:352 JLINK_ReadReg(FPS27)  returns 0x00000000 (0000ms, 0695ms total)
T074C 113:352 JLINK_ReadReg(FPS28)  returns 0x00000000 (0000ms, 0695ms total)
T074C 113:352 JLINK_ReadReg(FPS29)  returns 0x00000000 (0000ms, 0695ms total)
T074C 113:352 JLINK_ReadReg(FPS30)  returns 0x00000000 (0000ms, 0695ms total)
T074C 113:352 JLINK_ReadReg(FPS31)  returns 0x00000000 (0000ms, 0695ms total)
T13D8 113:352 JLINK_ReadMem (0x200048AC, 0x0004 Bytes, ...) -- CPU_ReadMem(64 bytes @ 0x20004880) -- Updating C cache (64 bytes @ 0x20004880) -- Read from C cache (4 bytes @ 0x200048AC) - Data: CB 01 02 00  returns 0x00 (0002ms, 0697ms total)
T13D8 113:354 JLINK_ReadMem (0x200048A8, 0x0004 Bytes, ...) -- Read from C cache (4 bytes @ 0x200048A8) - Data: 08 26 00 20  returns 0x00 (0000ms, 0697ms total)
T13D8 113:354 JLINK_ReadMem (0x200048C4, 0x0004 Bytes, ...) -- CPU_ReadMem(64 bytes @ 0x200048C0) -- Updating C cache (64 bytes @ 0x200048C0) -- Read from C cache (4 bytes @ 0x200048C4) - Data: F9 FF FF FF  returns 0x00 (0002ms, 0699ms total)
T13D8 113:356 JLINK_ReadMem (0x200048E0, 0x0004 Bytes, ...) -- Read from C cache (4 bytes @ 0x200048E0) - Data: F6 14 01 00  returns 0x00 (0000ms, 0699ms total)
T13D8 113:356 JLINK_ReadMem (0x200048E4, 0x0004 Bytes, ...) -- Read from C cache (4 bytes @ 0x200048E4) - Data: 00 00 00 21  returns 0x00 (0000ms, 0699ms total)
T13D8 113:356 JLINK_ReadMem (0x200048DC, 0x0004 Bytes, ...) -- Read from C cache (4 bytes @ 0x200048DC) - Data: F5 14 01 00  returns 0x00 (0000ms, 0699ms total)
T13D8 113:356 JLINK_ReadMem (0xE000ED28, 0x0004 Bytes, ...) -- CPU_ReadMem(4 bytes @ 0xE000ED28) - Data: 00 00 00 00  returns 0x00 (0000ms, 0699ms total)
T13D8 113:356 JLINK_ReadMem (0x200048D0, 0x0004 Bytes, ...) -- Read from C cache (4 bytes @ 0x200048D0) - Data: 2C 00 00 00  returns 0x00 (0000ms, 0699ms total)
T13D8 113:356 JLINK_ReadMem (0x200048D4, 0x0004 Bytes, ...) -- Read from C cache (4 bytes @ 0x200048D4) - Data: C4 22 00 20  returns 0x00 (0000ms, 0699ms total)
T13D8 113:356 JLINK_ReadMem (0x200048D8, 0x0004 Bytes, ...) -- Read from C cache (4 bytes @ 0x200048D8) - Data: 00 00 08 00  returns 0x00 (0000ms, 0699ms total)
T13D8 113:356 JLINK_ReadMem (0x00000000, 0x0004 Bytes, ...) -- CPU_ReadMem(64 bytes @ 0x00000000) -- Updating C cache (64 bytes @ 0x00000000) -- Read from C cache (4 bytes @ 0x00000000) - Data: 00 04 00 20  returns 0x00 (0002ms, 0701ms total)
T13D8 113:358 JLINK_ReadMem (0x200025E8, 0x0020 Bytes, ...) -- CPU_ReadMem(128 bytes @ 0x200025C0) -- Updating C cache (128 bytes @ 0x200025C0) -- Read from C cache (32 bytes @ 0x200025E8) - Data: 00 01 00 00 00 00 00 00 00 00 00 00 00 00 00 00 ...  returns 0x00 (0003ms, 0704ms total)
T074C 117:987 JLINK_Step() -- CPU_ReadMem(64 bytes @ 0x0001CE80) -- Updating C cache (64 bytes @ 0x0001CE80) -- Read from C cache (2 bytes @ 0x0001CEB2) -- CPU_ReadMem(4 bytes @ 0xE0001004) -- CPU_ReadMem(64 bytes @ 0x20002080) -- Updating C cache (64 bytes @ 0x20002080) -- Read from C cache (2 bytes @ 0x20002094) -- Simulated  returns 0x00 (0004ms, 0708ms total)
T074C 117:991 JLINK_ReadReg(R15 (PC))  returns 0x0001CEB4 (0000ms, 0708ms total)
T074C 117:991 JLINK_ReadReg(XPSR)  returns 0x01000021 (0000ms, 0708ms total)
T074C 117:991 JLINK_SetBPEx(Addr = 0x0001CEB2, Type = 0xFFFFFFF2)  returns 0x00000004 (0000ms, 0708ms total)
T074C 117:991 JLINK_Go() -- CPU_WriteMem(4 bytes @ 0xE0002000) -- CPU_ReadMem(4 bytes @ 0xE0001000) -- CPU_WriteMem(4 bytes @ 0xE0001004) (0004ms, 0712ms total)
T074C 118:096 JLINK_IsHalted()  returns FALSE (0000ms, 0712ms total)
T074C 118:197 JLINK_IsHalted()  returns FALSE (0000ms, 0712ms total)
T074C 118:298 JLINK_IsHalted()  returns FALSE (0001ms, 0713ms total)
T074C 118:399 JLINK_IsHalted()  returns FALSE (0000ms, 0712ms total)
T074C 118:501 JLINK_IsHalted()  returns FALSE (0000ms, 0712ms total)
T074C 118:602 JLINK_IsHalted()  returns FALSE (0000ms, 0712ms total)
T074C 118:703 JLINK_IsHalted()  returns FALSE (0000ms, 0712ms total)
T074C 118:804 JLINK_IsHalted()  returns FALSE (0000ms, 0712ms total)
T074C 118:905 JLINK_IsHalted()  returns FALSE (0000ms, 0712ms total)
T074C 119:007 JLINK_IsHalted()  returns TRUE (0004ms, 0716ms total)
T074C 119:011 JLINK_Halt()  returns 0x00 (0000ms, 0712ms total)
T074C 119:011 JLINK_IsHalted()  returns TRUE (0000ms, 0712ms total)
T074C 119:011 JLINK_IsHalted()  returns TRUE (0000ms, 0712ms total)
T074C 119:011 JLINK_IsHalted()  returns TRUE (0000ms, 0712ms total)
T074C 119:011 JLINK_ReadReg(R15 (PC))  returns 0x0001CEB2 (0000ms, 0712ms total)
T074C 119:011 JLINK_ReadReg(XPSR)  returns 0x01000021 (0000ms, 0712ms total)
T074C 119:011 JLINK_ClrBPEx(BPHandle = 0x00000004)  returns 0x00 (0000ms, 0712ms total)
T074C 119:011 JLINK_ReadMemU32(0xE000ED30, 0x0001 Items, ...) -- CPU_ReadMem(4 bytes @ 0xE000ED30) - Data: 02 00 00 00  returns 0x01 (0001ms, 0713ms total)
T074C 119:012 JLINK_ReadMemU32(0xE0001028, 0x0001 Items, ...) -- CPU_ReadMem(4 bytes @ 0xE0001028) - Data: 00 00 00 00  returns 0x01 (0001ms, 0714ms total)
T074C 119:013 JLINK_ReadMemU32(0xE0001038, 0x0001 Items, ...) -- CPU_ReadMem(4 bytes @ 0xE0001038) - Data: 00 02 00 00  returns 0x01 (0000ms, 0714ms total)
T074C 119:013 JLINK_ReadMemU32(0xE0001048, 0x0001 Items, ...) -- CPU_ReadMem(4 bytes @ 0xE0001048) - Data: 00 00 00 00  returns 0x01 (0001ms, 0715ms total)
T074C 119:014 JLINK_ReadMemU32(0xE0001058, 0x0001 Items, ...) -- CPU_ReadMem(4 bytes @ 0xE0001058) - Data: 00 00 00 00  returns 0x01 (0001ms, 0716ms total)
T074C 119:015 JLINK_ReadReg(R0)  returns 0x5000050C (0000ms, 0716ms total)
T074C 119:015 JLINK_ReadReg(R1)  returns 0x00000010 (0000ms, 0716ms total)
T074C 119:015 JLINK_ReadReg(R2)  returns 0x00000000 (0000ms, 0716ms total)
T074C 119:015 JLINK_ReadReg(R3)  returns 0x00000000 (0000ms, 0716ms total)
T074C 119:015 JLINK_ReadReg(R4)  returns 0x20002090 (0000ms, 0716ms total)
T074C 119:015 JLINK_ReadReg(R5)  returns 0x2000212C (0000ms, 0716ms total)
T074C 119:015 JLINK_ReadReg(R6)  returns 0x00000000 (0000ms, 0716ms total)
T074C 119:015 JLINK_ReadReg(R7)  returns 0x00004CCE (0000ms, 0716ms total)
T074C 119:015 JLINK_ReadReg(R8)  returns 0x00000000 (0000ms, 0716ms total)
T074C 119:015 JLINK_ReadReg(R9)  returns 0x00000000 (0000ms, 0716ms total)
T074C 119:015 JLINK_ReadReg(R10)  returns 0x00000000 (0000ms, 0716ms total)
T074C 119:015 JLINK_ReadReg(R11)  returns 0x00000000 (0000ms, 0716ms total)
T074C 119:015 JLINK_ReadReg(R12)  returns 0x00080000 (0000ms, 0716ms total)
T074C 119:016 JLINK_ReadReg(R13 (SP))  returns 0x200048A8 (0000ms, 0717ms total)
T074C 119:016 JLINK_ReadReg(R14)  returns 0x0001CEB3 (0000ms, 0717ms total)
T074C 119:016 JLINK_ReadReg(R15 (PC))  returns 0x0001CEB2 (0000ms, 0717ms total)
T074C 119:016 JLINK_ReadReg(XPSR)  returns 0x01000021 (0000ms, 0717ms total)
T074C 119:016 JLINK_ReadReg(MSP)  returns 0x200048A8 (0000ms, 0717ms total)
T074C 119:016 JLINK_ReadReg(PSP)  returns 0x00000000 (0000ms, 0717ms total)
T074C 119:016 JLINK_ReadReg(CFBP)  returns 0x00000000 (0000ms, 0717ms total)
T074C 119:016 JLINK_ReadReg(FPSCR)  returns 0x00000000 (0006ms, 0723ms total)
T074C 119:022 JLINK_ReadReg(FPS0)  returns 0x00000000 (0000ms, 0723ms total)
T074C 119:022 JLINK_ReadReg(FPS1)  returns 0x00000000 (0000ms, 0723ms total)
T074C 119:022 JLINK_ReadReg(FPS2)  returns 0x00000000 (0000ms, 0723ms total)
T074C 119:022 JLINK_ReadReg(FPS3)  returns 0x00000000 (0000ms, 0723ms total)
T074C 119:022 JLINK_ReadReg(FPS4)  returns 0x00000000 (0000ms, 0723ms total)
T074C 119:022 JLINK_ReadReg(FPS5)  returns 0x00000000 (0000ms, 0723ms total)
T074C 119:022 JLINK_ReadReg(FPS6)  returns 0x00000000 (0000ms, 0723ms total)
T074C 119:022 JLINK_ReadReg(FPS7)  returns 0x00000000 (0000ms, 0723ms total)
T074C 119:022 JLINK_ReadReg(FPS8)  returns 0x00000000 (0000ms, 0723ms total)
T074C 119:022 JLINK_ReadReg(FPS9)  returns 0x00000000 (0000ms, 0723ms total)
T074C 119:022 JLINK_ReadReg(FPS10)  returns 0x00000000 (0000ms, 0723ms total)
T074C 119:022 JLINK_ReadReg(FPS11)  returns 0x00000000 (0001ms, 0724ms total)
T074C 119:023 JLINK_ReadReg(FPS12)  returns 0x00000000 (0000ms, 0724ms total)
T074C 119:023 JLINK_ReadReg(FPS13)  returns 0x00000000 (0000ms, 0724ms total)
T074C 119:023 JLINK_ReadReg(FPS14)  returns 0x00000000 (0000ms, 0724ms total)
T074C 119:023 JLINK_ReadReg(FPS15)  returns 0x00000000 (0000ms, 0724ms total)
T074C 119:023 JLINK_ReadReg(FPS16)  returns 0x00000000 (0000ms, 0724ms total)
T074C 119:023 JLINK_ReadReg(FPS17)  returns 0x00000000 (0000ms, 0724ms total)
T074C 119:023 JLINK_ReadReg(FPS18)  returns 0x00000000 (0000ms, 0724ms total)
T074C 119:023 JLINK_ReadReg(FPS19)  returns 0x00000000 (0000ms, 0724ms total)
T074C 119:023 JLINK_ReadReg(FPS20)  returns 0x00000000 (0000ms, 0724ms total)
T074C 119:023 JLINK_ReadReg(FPS21)  returns 0x00000000 (0000ms, 0724ms total)
T074C 119:023 JLINK_ReadReg(FPS22)  returns 0x00000000 (0000ms, 0724ms total)
T074C 119:023 JLINK_ReadReg(FPS23)  returns 0x00000000 (0000ms, 0724ms total)
T074C 119:023 JLINK_ReadReg(FPS24)  returns 0x00000000 (0000ms, 0724ms total)
T074C 119:023 JLINK_ReadReg(FPS25)  returns 0x00000000 (0000ms, 0724ms total)
T074C 119:023 JLINK_ReadReg(FPS26)  returns 0x00000000 (0000ms, 0724ms total)
T074C 119:023 JLINK_ReadReg(FPS27)  returns 0x00000000 (0000ms, 0724ms total)
T074C 119:023 JLINK_ReadReg(FPS28)  returns 0x00000000 (0000ms, 0724ms total)
T074C 119:023 JLINK_ReadReg(FPS29)  returns 0x00000000 (0000ms, 0724ms total)
T074C 119:023 JLINK_ReadReg(FPS30)  returns 0x00000000 (0000ms, 0724ms total)
T074C 119:023 JLINK_ReadReg(FPS31)  returns 0x00000000 (0000ms, 0724ms total)
T13D8 119:024 JLINK_ReadMem (0x200048AC, 0x0004 Bytes, ...) -- CPU_ReadMem(64 bytes @ 0x20004880) -- Updating C cache (64 bytes @ 0x20004880) -- Read from C cache (4 bytes @ 0x200048AC) - Data: CB 01 02 00  returns 0x00 (0001ms, 0725ms total)
T13D8 119:025 JLINK_ReadMem (0x200048A8, 0x0004 Bytes, ...) -- Read from C cache (4 bytes @ 0x200048A8) - Data: 08 26 00 20  returns 0x00 (0000ms, 0725ms total)
T13D8 119:025 JLINK_ReadMem (0x200048C4, 0x0004 Bytes, ...) -- CPU_ReadMem(64 bytes @ 0x200048C0) -- Updating C cache (64 bytes @ 0x200048C0) -- Read from C cache (4 bytes @ 0x200048C4) - Data: F9 FF FF FF  returns 0x00 (0002ms, 0727ms total)
T13D8 119:027 JLINK_ReadMem (0x200048E0, 0x0004 Bytes, ...) -- Read from C cache (4 bytes @ 0x200048E0) - Data: F6 14 01 00  returns 0x00 (0000ms, 0727ms total)
T13D8 119:027 JLINK_ReadMem (0x200048E4, 0x0004 Bytes, ...) -- Read from C cache (4 bytes @ 0x200048E4) - Data: 00 00 00 21  returns 0x00 (0000ms, 0727ms total)
T13D8 119:027 JLINK_ReadMem (0x200048DC, 0x0004 Bytes, ...) -- Read from C cache (4 bytes @ 0x200048DC) - Data: F5 14 01 00  returns 0x00 (0000ms, 0727ms total)
T13D8 119:027 JLINK_ReadMem (0xE000ED28, 0x0004 Bytes, ...) -- CPU_ReadMem(4 bytes @ 0xE000ED28) - Data: 00 00 00 00  returns 0x00 (0000ms, 0727ms total)
T13D8 119:027 JLINK_ReadMem (0x200048D0, 0x0004 Bytes, ...) -- Read from C cache (4 bytes @ 0x200048D0) - Data: 2C 00 00 00  returns 0x00 (0001ms, 0728ms total)
T13D8 119:028 JLINK_ReadMem (0x200048D4, 0x0004 Bytes, ...) -- Read from C cache (4 bytes @ 0x200048D4) - Data: C4 22 00 20  returns 0x00 (0000ms, 0728ms total)
T13D8 119:028 JLINK_ReadMem (0x200048D8, 0x0004 Bytes, ...) -- Read from C cache (4 bytes @ 0x200048D8) - Data: 00 00 08 00  returns 0x00 (0000ms, 0728ms total)
T13D8 119:028 JLINK_ReadMem (0x00000000, 0x0004 Bytes, ...) -- CPU_ReadMem(64 bytes @ 0x00000000) -- Updating C cache (64 bytes @ 0x00000000) -- Read from C cache (4 bytes @ 0x00000000) - Data: 00 04 00 20  returns 0x00 (0001ms, 0729ms total)
T13D8 119:031 JLINK_ReadMem (0x200025E8, 0x0020 Bytes, ...) -- CPU_ReadMem(128 bytes @ 0x200025C0) -- Updating C cache (128 bytes @ 0x200025C0) -- Read from C cache (32 bytes @ 0x200025E8) - Data: 01 00 00 00 00 00 00 00 00 00 00 00 00 00 00 00 ...  returns 0x00 (0003ms, 0732ms total)
T074C 120:755 JLINK_Step() -- CPU_ReadMem(64 bytes @ 0x0001CE80) -- Updating C cache (64 bytes @ 0x0001CE80) -- Read from C cache (2 bytes @ 0x0001CEB2) -- CPU_ReadMem(4 bytes @ 0xE0001004) -- CPU_ReadMem(64 bytes @ 0x20002080) -- Updating C cache (64 bytes @ 0x20002080) -- Read from C cache (2 bytes @ 0x20002094) -- Simulated  returns 0x00 (0004ms, 0736ms total)
T074C 120:759 JLINK_ReadReg(R15 (PC))  returns 0x0001CEB4 (0000ms, 0736ms total)
T074C 120:759 JLINK_ReadReg(XPSR)  returns 0x01000021 (0000ms, 0736ms total)
T074C 120:759 JLINK_SetBPEx(Addr = 0x0001CEB2, Type = 0xFFFFFFF2)  returns 0x00000005 (0000ms, 0736ms total)
T074C 120:759 JLINK_Go() -- CPU_WriteMem(4 bytes @ 0xE0002000) -- CPU_ReadMem(4 bytes @ 0xE0001000) -- CPU_WriteMem(4 bytes @ 0xE0001004) (0004ms, 0740ms total)
T074C 120:863 JLINK_IsHalted()  returns TRUE (0004ms, 0744ms total)
T074C 120:867 JLINK_Halt()  returns 0x00 (0000ms, 0740ms total)
T074C 120:867 JLINK_IsHalted()  returns TRUE (0000ms, 0740ms total)
T074C 120:867 JLINK_IsHalted()  returns TRUE (0000ms, 0740ms total)
T074C 120:867 JLINK_IsHalted()  returns TRUE (0000ms, 0740ms total)
T074C 120:867 JLINK_ReadReg(R15 (PC))  returns 0x0001CEB2 (0000ms, 0740ms total)
T074C 120:867 JLINK_ReadReg(XPSR)  returns 0x01000021 (0000ms, 0740ms total)
T074C 120:867 JLINK_ClrBPEx(BPHandle = 0x00000005)  returns 0x00 (0000ms, 0740ms total)
T074C 120:867 JLINK_ReadMemU32(0xE000ED30, 0x0001 Items, ...) -- CPU_ReadMem(4 bytes @ 0xE000ED30) - Data: 03 00 00 00  returns 0x01 (0001ms, 0741ms total)
T074C 120:868 JLINK_ReadMemU32(0xE0001028, 0x0001 Items, ...) -- CPU_ReadMem(4 bytes @ 0xE0001028) - Data: 00 00 00 00  returns 0x01 (0001ms, 0742ms total)
T074C 120:869 JLINK_ReadMemU32(0xE0001038, 0x0001 Items, ...) -- CPU_ReadMem(4 bytes @ 0xE0001038) - Data: 00 02 00 00  returns 0x01 (0001ms, 0743ms total)
T074C 120:870 JLINK_ReadMemU32(0xE0001048, 0x0001 Items, ...) -- CPU_ReadMem(4 bytes @ 0xE0001048) - Data: 00 00 00 00  returns 0x01 (0001ms, 0744ms total)
T074C 120:871 JLINK_ReadMemU32(0xE0001058, 0x0001 Items, ...) -- CPU_ReadMem(4 bytes @ 0xE0001058) - Data: 00 00 00 00  returns 0x01 (0001ms, 0745ms total)
T074C 120:872 JLINK_ReadReg(R0)  returns 0x5000050C (0000ms, 0745ms total)
T074C 120:872 JLINK_ReadReg(R1)  returns 0x00000010 (0000ms, 0745ms total)
T074C 120:872 JLINK_ReadReg(R2)  returns 0x00000000 (0000ms, 0745ms total)
T074C 120:872 JLINK_ReadReg(R3)  returns 0x00000000 (0000ms, 0745ms total)
T074C 120:872 JLINK_ReadReg(R4)  returns 0x20002090 (0000ms, 0745ms total)
T074C 120:872 JLINK_ReadReg(R5)  returns 0x2000212C (0000ms, 0745ms total)
T074C 120:872 JLINK_ReadReg(R6)  returns 0x00006218 (0000ms, 0745ms total)
T074C 120:872 JLINK_ReadReg(R7)  returns 0x00008000 (0000ms, 0745ms total)
T074C 120:872 JLINK_ReadReg(R8)  returns 0x00000000 (0000ms, 0745ms total)
T074C 120:872 JLINK_ReadReg(R9)  returns 0x00000000 (0000ms, 0745ms total)
T074C 120:872 JLINK_ReadReg(R10)  returns 0x00000000 (0000ms, 0745ms total)
T074C 120:872 JLINK_ReadReg(R11)  returns 0x00000000 (0000ms, 0745ms total)
T074C 120:872 JLINK_ReadReg(R12)  returns 0x00080000 (0000ms, 0745ms total)
T074C 120:872 JLINK_ReadReg(R13 (SP))  returns 0x200048A8 (0000ms, 0745ms total)
T074C 120:872 JLINK_ReadReg(R14)  returns 0x0001CEB3 (0000ms, 0745ms total)
T074C 120:872 JLINK_ReadReg(R15 (PC))  returns 0x0001CEB2 (0000ms, 0745ms total)
T074C 120:872 JLINK_ReadReg(XPSR)  returns 0x01000021 (0000ms, 0745ms total)
T074C 120:872 JLINK_ReadReg(MSP)  returns 0x200048A8 (0000ms, 0745ms total)
T074C 120:872 JLINK_ReadReg(PSP)  returns 0x00000000 (0000ms, 0745ms total)
T074C 120:872 JLINK_ReadReg(CFBP)  returns 0x00000000 (0001ms, 0746ms total)
T074C 120:873 JLINK_ReadReg(FPSCR)  returns 0x00000000 (0005ms, 0751ms total)
T074C 120:879 JLINK_ReadReg(FPS0)  returns 0x00000000 (0000ms, 0751ms total)
T074C 120:879 JLINK_ReadReg(FPS1)  returns 0x00000000 (0000ms, 0751ms total)
T074C 120:879 JLINK_ReadReg(FPS2)  returns 0x00000000 (0000ms, 0751ms total)
T074C 120:879 JLINK_ReadReg(FPS3)  returns 0x00000000 (0000ms, 0751ms total)
T074C 120:879 JLINK_ReadReg(FPS4)  returns 0x00000000 (0000ms, 0751ms total)
T074C 120:879 JLINK_ReadReg(FPS5)  returns 0x00000000 (0000ms, 0751ms total)
T074C 120:879 JLINK_ReadReg(FPS6)  returns 0x00000000 (0000ms, 0751ms total)
T074C 120:879 JLINK_ReadReg(FPS7)  returns 0x00000000 (0000ms, 0751ms total)
T074C 120:879 JLINK_ReadReg(FPS8)  returns 0x00000000 (0000ms, 0751ms total)
T074C 120:879 JLINK_ReadReg(FPS9)  returns 0x00000000 (0000ms, 0751ms total)
T074C 120:879 JLINK_ReadReg(FPS10)  returns 0x00000000 (0000ms, 0751ms total)
T074C 120:879 JLINK_ReadReg(FPS11)  returns 0x00000000 (0000ms, 0751ms total)
T074C 120:879 JLINK_ReadReg(FPS12)  returns 0x00000000 (0000ms, 0751ms total)
T074C 120:879 JLINK_ReadReg(FPS13)  returns 0x00000000 (0000ms, 0751ms total)
T074C 120:879 JLINK_ReadReg(FPS14)  returns 0x00000000 (0000ms, 0751ms total)
T074C 120:879 JLINK_ReadReg(FPS15)  returns 0x00000000 (0000ms, 0751ms total)
T074C 120:879 JLINK_ReadReg(FPS16)  returns 0x00000000 (0000ms, 0751ms total)
T074C 120:879 JLINK_ReadReg(FPS17)  returns 0x00000000 (0000ms, 0751ms total)
T074C 120:879 JLINK_ReadReg(FPS18)  returns 0x00000000 (0000ms, 0751ms total)
T074C 120:879 JLINK_ReadReg(FPS19)  returns 0x00000000 (0000ms, 0751ms total)
T074C 120:879 JLINK_ReadReg(FPS20)  returns 0x00000000 (0000ms, 0751ms total)
T074C 120:879 JLINK_ReadReg(FPS21)  returns 0x00000000 (0000ms, 0751ms total)
T074C 120:879 JLINK_ReadReg(FPS22)  returns 0x00000000 (0000ms, 0751ms total)
T074C 120:879 JLINK_ReadReg(FPS23)  returns 0x00000000 (0000ms, 0751ms total)
T074C 120:879 JLINK_ReadReg(FPS24)  returns 0x00000000 (0000ms, 0751ms total)
T074C 120:880 JLINK_ReadReg(FPS25)  returns 0x00000000 (0000ms, 0751ms total)
T074C 120:880 JLINK_ReadReg(FPS26)  returns 0x00000000 (0000ms, 0751ms total)
T074C 120:880 JLINK_ReadReg(FPS27)  returns 0x00000000 (0000ms, 0751ms total)
T074C 120:880 JLINK_ReadReg(FPS28)  returns 0x00000000 (0000ms, 0751ms total)
T074C 120:880 JLINK_ReadReg(FPS29)  returns 0x00000000 (0000ms, 0751ms total)
T074C 120:880 JLINK_ReadReg(FPS30)  returns 0x00000000 (0000ms, 0751ms total)
T074C 120:880 JLINK_ReadReg(FPS31)  returns 0x00000000 (0000ms, 0751ms total)
T13D8 120:880 JLINK_ReadMem (0x200048AC, 0x0004 Bytes, ...) -- CPU_ReadMem(64 bytes @ 0x20004880) -- Updating C cache (64 bytes @ 0x20004880) -- Read from C cache (4 bytes @ 0x200048AC) - Data: CB 01 02 00  returns 0x00 (0002ms, 0753ms total)
T13D8 120:882 JLINK_ReadMem (0x200048A8, 0x0004 Bytes, ...) -- Read from C cache (4 bytes @ 0x200048A8) - Data: 08 26 00 20  returns 0x00 (0000ms, 0753ms total)
